time	V(gate)	V(n002)
0.000000000000000e+000	3.917481e-003	0.000000e+000
1.953124890551744e-013	3.917631e-003	1.953125e-004
3.906249781103488e-013	3.917820e-003	3.906250e-004
7.812499562206976e-013	3.918342e-003	7.812500e-004
1.562499912441395e-012	3.919916e-003	1.562500e-003
3.124999824882790e-012	3.924860e-003	3.125000e-003
6.249999649765581e-012	3.940081e-003	6.250000e-003
1.249999929953116e-011	3.983314e-003	1.250000e-002
2.499999859906232e-011	4.091427e-003	2.500000e-002
4.806592027081202e-011	4.311384e-003	4.806592e-002
7.709239004593724e-011	4.593287e-003	7.709239e-002
1.351453295961877e-010	5.150933e-003	1.351453e-001
2.307679336150730e-010	6.054727e-003	2.307679e-001
3.664128118500554e-010	7.318140e-003	3.664128e-001
5.759580110975340e-010	9.259446e-003	5.759580e-001
9.018409208867484e-010	1.233181e-002	9.018409e-001
1.358393608800673e-009	1.690531e-002	1.358394e+000
1.882874513528395e-009	2.443181e-002	1.882874e+000
2.282055371457556e-009	3.753381e-002	2.282055e+000
2.584763719769927e-009	5.792803e-002	2.584764e+000
2.940777128160991e-009	9.386411e-002	2.940777e+000
3.306808047613830e-009	1.424718e-001	3.306808e+000
3.903416497858221e-009	2.447846e-001	3.903416e+000
4.595761405945620e-009	3.999775e-001	4.595761e+000
5.609561205687833e-009	7.006928e-001	5.609561e+000
6.851072846190291e-009	1.180959e+000	6.851073e+000
8.196467983085567e-009	1.853105e+000	8.196468e+000
1.000000000000000e-008	2.916403e+000	1.000000e+001
1.018035320169144e-008	3.039134e+000	1.000000e+001
1.054105960507433e-008	3.286256e+000	1.000000e+001
1.126247241184010e-008	3.784672e+000	1.000000e+001
1.223376581134073e-008	4.456831e+000	1.000000e+001
1.332634326295495e-008	5.202365e+000	1.000000e+001
1.431655853673311e-008	5.827569e+000	1.000000e+001
1.503289165841226e-008	6.154264e+000	1.000000e+001
1.595648741084637e-008	6.361088e+000	1.000000e+001
1.661759562629849e-008	6.407735e+000	1.000000e+001
1.723189168686777e-008	6.412575e+000	1.000000e+001
1.791154495248102e-008	6.413635e+000	1.000000e+001
1.864789863213581e-008	6.424101e+000	1.000000e+001
1.945133977074731e-008	6.449206e+000	1.000000e+001
2.029641252273379e-008	6.482499e+000	1.000000e+001
2.146742869180397e-008	6.529229e+000	1.000000e+001
2.316446521894018e-008	6.593454e+000	1.000000e+001
2.496457287255631e-008	6.665887e+000	1.000000e+001
2.563524594687645e-008	6.714013e+000	1.000000e+001
2.599303384282066e-008	6.766754e+000	1.000000e+001
2.622991875476115e-008	6.820438e+000	1.000000e+001
2.640174081857057e-008	6.866764e+000	1.000000e+001
2.660826577444277e-008	6.925741e+000	1.000000e+001
2.683269355141868e-008	6.991342e+000	1.000000e+001
2.708956162939257e-008	7.067150e+000	1.000000e+001
2.744995373417361e-008	7.173527e+000	1.000000e+001
2.780366742750825e-008	7.277197e+000	1.000000e+001
2.828565407616013e-008	7.416638e+000	1.000000e+001
2.882192950105305e-008	7.568925e+000	1.000000e+001
2.945701996872049e-008	7.744849e+000	1.000000e+001
3.020446357320978e-008	7.945684e+000	1.000000e+001
3.103275074522209e-008	8.160110e+000	1.000000e+001
3.202745145408832e-008	8.406624e+000	1.000000e+001
3.308727807841306e-008	8.656153e+000	1.000000e+001
3.435535018465682e-008	8.936872e+000	1.000000e+001
3.588761570392328e-008	9.253125e+000	1.000000e+001
3.737381782144466e-008	9.533895e+000	1.000000e+001
3.958802136805391e-008	9.910396e+000	1.000000e+001
4.162558411467460e-008	1.020944e+001	1.000000e+001
4.517335256390954e-008	1.063126e+001	1.000000e+001
4.857878091818932e-008	1.091161e+001	1.000000e+001
5.360579036694687e-008	1.109649e+001	1.000000e+001
5.763270288199963e-008	1.106659e+001	1.000000e+001
5.937752120895228e-008	1.099100e+001	1.000000e+001
6.045488802138807e-008	1.092627e+001	1.000000e+001
6.108988702905069e-008	1.089444e+001	1.000000e+001
6.147147428283095e-008	1.088750e+001	1.000000e+001
6.177684141021361e-008	1.088866e+001	1.000000e+001
6.200541619886479e-008	1.088999e+001	1.000000e+001
6.219840472053610e-008	1.089086e+001	1.000000e+001
6.237196069849817e-008	1.089154e+001	1.000000e+001
6.254836196233557e-008	1.089216e+001	1.000000e+001
6.271981506181220e-008	1.089270e+001	1.000000e+001
6.290469266304518e-008	1.089322e+001	1.000000e+001
6.310373591703465e-008	1.089371e+001	1.000000e+001
6.332491776156477e-008	1.089418e+001	1.000000e+001
6.357739908484033e-008	1.089451e+001	1.000000e+001
6.386733042075674e-008	1.089453e+001	1.000000e+001
6.420511635686893e-008	1.089426e+001	1.000000e+001
6.460468846064935e-008	1.089396e+001	1.000000e+001
6.509003674532489e-008	1.089363e+001	1.000000e+001
6.566387469913580e-008	1.089325e+001	1.000000e+001
6.636227478318485e-008	1.089278e+001	1.000000e+001
6.720721166958575e-008	1.089220e+001	1.000000e+001
6.823339004920802e-008	1.089148e+001	1.000000e+001
6.953288524404778e-008	1.089056e+001	1.000000e+001
7.130069623961348e-008	1.088931e+001	1.000000e+001
7.384604489463841e-008	1.088750e+001	1.000000e+001
7.785365606699893e-008	1.088468e+001	1.000000e+001
8.484397074012235e-008	1.087980e+001	1.000000e+001
9.868009532014007e-008	1.087028e+001	1.000000e+001
1.182113453201401e-007	1.085705e+001	1.000000e+001
1.377425953201401e-007	1.084402e+001	1.000000e+001
1.572738453201401e-007	1.083118e+001	1.000000e+001
1.768050953201401e-007	1.081855e+001	1.000000e+001
1.963363453201401e-007	1.080613e+001	1.000000e+001
2.158675953201401e-007	1.079396e+001	1.000000e+001
2.353988453201401e-007	1.078205e+001	1.000000e+001
2.549300953201401e-007	1.077043e+001	1.000000e+001
2.744613453201401e-007	1.075914e+001	1.000000e+001
2.939925953201401e-007	1.074818e+001	1.000000e+001
3.135238453201401e-007	1.073758e+001	1.000000e+001
3.330550953201401e-007	1.072736e+001	1.000000e+001
3.525863453201401e-007	1.071753e+001	1.000000e+001
3.721175953201401e-007	1.070810e+001	1.000000e+001
3.916488453201401e-007	1.069909e+001	1.000000e+001
4.111800953201401e-007	1.069050e+001	1.000000e+001
4.307113453201401e-007	1.068234e+001	1.000000e+001
4.502425953201401e-007	1.067460e+001	1.000000e+001
4.697738453201401e-007	1.066729e+001	1.000000e+001
4.893050953201401e-007	1.066041e+001	1.000000e+001
5.088363453201400e-007	1.065395e+001	1.000000e+001
5.283675953201401e-007	1.064791e+001	1.000000e+001
5.478988453201400e-007	1.064228e+001	1.000000e+001
5.674300953201401e-007	1.063705e+001	1.000000e+001
5.869613453201400e-007	1.063221e+001	1.000000e+001
6.064925953201401e-007	1.062775e+001	1.000000e+001
6.260238453201400e-007	1.062366e+001	1.000000e+001
6.455550953201401e-007	1.061992e+001	1.000000e+001
6.650863453201400e-007	1.061652e+001	1.000000e+001
6.846175953201401e-007	1.061344e+001	1.000000e+001
7.041488453201400e-007	1.061066e+001	1.000000e+001
7.236800953201401e-007	1.060818e+001	1.000000e+001
7.432113453201400e-007	1.060596e+001	1.000000e+001
7.627425953201401e-007	1.060401e+001	1.000000e+001
7.822738453201400e-007	1.060229e+001	1.000000e+001
8.018050953201401e-007	1.060078e+001	1.000000e+001
8.213363453201400e-007	1.059948e+001	1.000000e+001
8.408675953201401e-007	1.059837e+001	1.000000e+001
8.603988453201400e-007	1.059741e+001	1.000000e+001
8.799300953201401e-007	1.059661e+001	1.000000e+001
8.994613453201401e-007	1.059593e+001	1.000000e+001
9.189925953201401e-007	1.059537e+001	1.000000e+001
9.385238453201401e-007	1.059491e+001	1.000000e+001
9.580550953201402e-007	1.059452e+001	1.000000e+001
9.775863453201400e-007	1.059421e+001	1.000000e+001
9.971175953201401e-007	1.059394e+001	1.000000e+001
1.016648845320140e-006	1.059372e+001	1.000000e+001
1.036180095320140e-006	1.059352e+001	1.000000e+001
1.055711345320140e-006	1.059334e+001	1.000000e+001
1.075242595320140e-006	1.059317e+001	1.000000e+001
1.094773845320140e-006	1.059299e+001	1.000000e+001
1.114305095320140e-006	1.059281e+001	1.000000e+001
1.133836345320140e-006	1.059261e+001	1.000000e+001
1.153367595320140e-006	1.059239e+001	1.000000e+001
1.172898845320140e-006	1.059216e+001	1.000000e+001
1.192430095320140e-006	1.059190e+001	1.000000e+001
1.211961345320140e-006	1.059162e+001	1.000000e+001
1.231492595320140e-006	1.059132e+001	1.000000e+001
1.251023845320140e-006	1.059100e+001	1.000000e+001
1.270555095320140e-006	1.059066e+001	1.000000e+001
1.290086345320140e-006	1.059031e+001	1.000000e+001
1.309617595320140e-006	1.058994e+001	1.000000e+001
1.329148845320140e-006	1.058956e+001	1.000000e+001
1.348680095320140e-006	1.058917e+001	1.000000e+001
1.368211345320140e-006	1.058878e+001	1.000000e+001
1.387742595320140e-006	1.058838e+001	1.000000e+001
1.407273845320140e-006	1.058798e+001	1.000000e+001
1.426805095320140e-006	1.058758e+001	1.000000e+001
1.446336345320140e-006	1.058718e+001	1.000000e+001
1.465867595320140e-006	1.058678e+001	1.000000e+001
1.485398845320140e-006	1.058638e+001	1.000000e+001
1.504930095320140e-006	1.058599e+001	1.000000e+001
1.524461345320140e-006	1.058559e+001	1.000000e+001
1.543992595320140e-006	1.058521e+001	1.000000e+001
1.563523845320140e-006	1.058482e+001	1.000000e+001
1.583055095320140e-006	1.058444e+001	1.000000e+001
1.602586345320140e-006	1.058406e+001	1.000000e+001
1.622117595320140e-006	1.058369e+001	1.000000e+001
1.641648845320140e-006	1.058332e+001	1.000000e+001
1.661180095320140e-006	1.058295e+001	1.000000e+001
1.680711345320140e-006	1.058259e+001	1.000000e+001
1.719773845320140e-006	1.058188e+001	1.000000e+001
1.758836345320140e-006	1.058119e+001	1.000000e+001
1.817430095320140e-006	1.058018e+001	1.000000e+001
1.867653309605854e-006	1.057934e+001	1.000000e+001
1.917876523891569e-006	1.057852e+001	1.000000e+001
1.968099738177283e-006	1.057772e+001	1.000000e+001
2.018322952462997e-006	1.057694e+001	1.000000e+001
2.068546166748712e-006	1.057619e+001	1.000000e+001
2.118769381034426e-006	1.057545e+001	1.000000e+001
2.168992595320140e-006	1.057473e+001	1.000000e+001
2.266648845320140e-006	1.057340e+001	1.000000e+001
2.364305095320140e-006	1.057211e+001	1.000000e+001
2.461961345320141e-006	1.057087e+001	1.000000e+001
2.559617595320140e-006	1.056967e+001	1.000000e+001
2.657273845320140e-006	1.056853e+001	1.000000e+001
2.754930095320140e-006	1.056744e+001	1.000000e+001
2.852586345320140e-006	1.056640e+001	1.000000e+001
3.011626523891569e-006	1.056478e+001	1.000000e+001
3.170666702462998e-006	1.056323e+001	1.000000e+001
3.329706881034426e-006	1.056175e+001	1.000000e+001
3.488747059605855e-006	1.056035e+001	1.000000e+001
3.647787238177283e-006	1.055901e+001	1.000000e+001
3.806827416748712e-006	1.055774e+001	1.000000e+001
3.965867595320140e-006	1.055655e+001	1.000000e+001
4.108166702462997e-006	1.055551e+001	1.000000e+001
4.250465809605855e-006	1.055451e+001	1.000000e+001
4.392764916748712e-006	1.055354e+001	1.000000e+001
4.535064023891569e-006	1.055260e+001	1.000000e+001
4.677363131034427e-006	1.055169e+001	1.000000e+001
4.819662238177283e-006	1.055081e+001	1.000000e+001
4.961961345320140e-006	1.054997e+001	1.000000e+001
4.981492595320140e-006	1.054985e+001	1.000000e+001
4.990468750000000e-006	1.054980e+001	1.000000e+001
4.992047690640281e-006	1.054979e+001	1.000000e+001
4.995205571920840e-006	1.054977e+001	1.000000e+001
5.001521334481961e-006	1.054974e+001	1.000000e+001
5.010000000000000e-006	1.054964e+001	1.000000e+001
5.010046452866880e-006	1.054906e+001	9.953547e+000
5.010139358600640e-006	1.054770e+001	9.860641e+000
5.010325170068160e-006	1.054477e+001	9.674829e+000
5.010561576324899e-006	1.054088e+001	9.438424e+000
5.011034388838379e-006	1.053267e+001	8.965611e+000
5.011566951850611e-006	1.052269e+001	8.433048e+000
5.012436623026979e-006	1.050471e+001	7.563377e+000
5.013611573613962e-006	1.047685e+001	6.388426e+000
5.015961474787927e-006	1.040897e+001	4.038525e+000
5.020000000000000e-006	1.027361e+001	0.000000e+000
5.020403852521208e-006	1.026366e+001	0.000000e+000
5.021211557563622e-006	1.024403e+001	0.000000e+000
5.022826967648451e-006	1.020500e+001	0.000000e+000
5.024475391130654e-006	1.016512e+001	0.000000e+000
5.026909465158006e-006	1.010607e+001	0.000000e+000
5.031777613212708e-006	9.987430e+000	0.000000e+000
5.040421131845906e-006	9.775232e+000	0.000000e+000
5.057708169112301e-006	9.346872e+000	0.000000e+000
5.077239419112301e-006	8.858515e+000	0.000000e+000
5.096770669112301e-006	8.366902e+000	0.000000e+000
5.116301919112301e-006	7.874172e+000	0.000000e+000
5.135833169112301e-006	7.382543e+000	0.000000e+000
5.155364419112301e-006	6.894095e+000	0.000000e+000
5.174895669112300e-006	6.410772e+000	0.000000e+000
5.194426919112300e-006	5.934381e+000	0.000000e+000
5.213958169112300e-006	5.466605e+000	0.000000e+000
5.233489419112300e-006	5.008301e+000	0.000000e+000
5.248206732963810e-006	4.670026e+000	0.000000e+000
5.258203103356846e-006	4.444654e+000	0.000000e+000
5.265372625673629e-006	4.285727e+000	0.000000e+000
5.270822987162508e-006	4.166850e+000	0.000000e+000
5.275237458179472e-006	4.072344e+000	0.000000e+000
5.278938103210513e-006	3.995112e+000	0.000000e+000
5.282096326442113e-006	3.931726e+000	0.000000e+000
5.284682534424108e-006	3.883067e+000	0.000000e+000
5.286676610781381e-006	3.850024e+000	0.000000e+000
5.288813174435498e-006	3.821485e+000	0.000000e+000
5.290967773283089e-006	3.799711e+000	0.000000e+000
5.293624070446029e-006	3.779329e+000	0.000000e+000
5.296589955693017e-006	3.761578e+000	0.000000e+000
5.301489520199628e-006	3.738684e+000	0.000000e+000
5.308299543550046e-006	3.713590e+000	0.000000e+000
5.319676532417005e-006	3.678755e+000	0.000000e+000
5.337498226025097e-006	3.625008e+000	0.000000e+000
5.357029476025097e-006	3.553660e+000	0.000000e+000
5.376560726025097e-006	3.452503e+000	0.000000e+000
5.396091976025097e-006	3.292943e+000	0.000000e+000
5.413094536861922e-006	3.063286e+000	0.000000e+000
5.430262271050946e-006	2.716924e+000	0.000000e+000
5.449793521050946e-006	2.222857e+000	0.000000e+000
5.469324771050945e-006	1.681243e+000	0.000000e+000
5.488856021050945e-006	1.131798e+000	0.000000e+000
5.508387271050945e-006	5.980479e-001	0.000000e+000
5.523558587424001e-006	2.134394e-001	0.000000e+000
5.530585459909637e-006	7.343155e-002	0.000000e+000
5.534146257278570e-006	3.423505e-002	0.000000e+000
5.536924612654948e-006	2.161471e-002	0.000000e+000
5.539020656435191e-006	1.688270e-002	0.000000e+000
5.541220492819851e-006	1.408382e-002	0.000000e+000
5.543648061824468e-006	1.218684e-002	0.000000e+000
5.546175331718092e-006	1.100047e-002	0.000000e+000
5.549161724525995e-006	1.014822e-002	0.000000e+000
5.552364605842951e-006	9.586278e-003	0.000000e+000
5.556529526269763e-006	9.111806e-003	0.000000e+000
5.561278039531086e-006	8.730476e-003	0.000000e+000
5.568137277869440e-006	8.305937e-003	0.000000e+000
5.576741724148236e-006	7.878209e-003	0.000000e+000
5.591589549830651e-006	7.301427e-003	0.000000e+000
5.611120799830651e-006	6.745131e-003	0.000000e+000
5.630652049830651e-006	6.374491e-003	0.000000e+000
5.650183299830651e-006	6.152723e-003	0.000000e+000
5.669714549830651e-006	6.039324e-003	0.000000e+000
5.689245799830651e-006	6.005310e-003	0.000000e+000
5.708777049830651e-006	6.030079e-003	0.000000e+000
5.728308299830651e-006	6.099155e-003	0.000000e+000
5.747839549830651e-006	6.202412e-003	0.000000e+000
5.767370799830651e-006	6.332903e-003	0.000000e+000
5.786902049830651e-006	6.485911e-003	0.000000e+000
5.806433299830651e-006	6.658375e-003	0.000000e+000
5.825964549830650e-006	6.848395e-003	0.000000e+000
5.845495799830650e-006	7.054967e-003	0.000000e+000
5.865027049830650e-006	7.277722e-003	0.000000e+000
5.884558299830651e-006	7.516823e-003	0.000000e+000
5.904089549830651e-006	7.772825e-003	0.000000e+000
5.923620799830651e-006	8.046654e-003	0.000000e+000
5.943152049830651e-006	8.339535e-003	0.000000e+000
5.962683299830651e-006	8.653020e-003	0.000000e+000
5.982214549830651e-006	8.988954e-003	0.000000e+000
6.001745799830651e-006	9.349537e-003	0.000000e+000
6.021277049830651e-006	9.737317e-003	0.000000e+000
6.040808299830651e-006	1.015529e-002	0.000000e+000
6.060339549830651e-006	1.060692e-002	0.000000e+000
6.079870799830651e-006	1.109625e-002	0.000000e+000
6.099402049830651e-006	1.162803e-002	0.000000e+000
6.118933299830651e-006	1.220790e-002	0.000000e+000
6.138464549830651e-006	1.284249e-002	0.000000e+000
6.157995799830650e-006	1.353972e-002	0.000000e+000
6.177527049830650e-006	1.430907e-002	0.000000e+000
6.197058299830650e-006	1.516216e-002	0.000000e+000
6.216589549830651e-006	1.611301e-002	0.000000e+000
6.236120799830651e-006	1.717891e-002	0.000000e+000
6.255652049830651e-006	1.838158e-002	0.000000e+000
6.275183299830651e-006	1.974828e-002	0.000000e+000
6.294714549830651e-006	2.131358e-002	0.000000e+000
6.314245799830651e-006	2.312224e-002	0.000000e+000
6.333777049830651e-006	2.523259e-002	0.000000e+000
6.353308299830651e-006	2.772157e-002	0.000000e+000
6.372839549830651e-006	3.069158e-002	0.000000e+000
6.392370799830651e-006	3.427961e-002	0.000000e+000
6.411902049830651e-006	3.866853e-002	0.000000e+000
6.431433299830651e-006	4.409881e-002	0.000000e+000
6.450964549830651e-006	5.087569e-002	0.000000e+000
6.470495799830650e-006	5.936184e-002	0.000000e+000
6.490027049830650e-006	6.994293e-002	0.000000e+000
6.509558299830650e-006	8.296011e-002	0.000000e+000
6.529089549830651e-006	9.862590e-002	0.000000e+000
6.548620799830651e-006	1.169597e-001	0.000000e+000
6.568152049830651e-006	1.377771e-001	0.000000e+000
6.587683299830651e-006	1.607324e-001	0.000000e+000
6.607214549830651e-006	1.853867e-001	0.000000e+000
6.626745799830651e-006	2.112674e-001	0.000000e+000
6.646277049830651e-006	2.379048e-001	0.000000e+000
6.665808299830651e-006	2.648478e-001	0.000000e+000
6.685339549830651e-006	2.916627e-001	0.000000e+000
6.704870799830651e-006	3.179191e-001	0.000000e+000
6.724402049830651e-006	3.431518e-001	0.000000e+000
6.743933299830651e-006	3.667405e-001	0.000000e+000
6.763464549830651e-006	3.879532e-001	0.000000e+000
6.775919478667361e-006	3.991801e-001	0.000000e+000
6.782237790993815e-006	4.029458e-001	0.000000e+000
6.785181262972561e-006	4.035974e-001	0.000000e+000
6.786860602318235e-006	4.036008e-001	0.000000e+000
6.787757712549058e-006	4.035682e-001	0.000000e+000
6.789023373983463e-006	4.035223e-001	0.000000e+000
6.790109781429151e-006	4.034848e-001	0.000000e+000
6.790982071632127e-006	4.034557e-001	0.000000e+000
6.792152330597723e-006	4.034181e-001	0.000000e+000
6.793085045287771e-006	4.033890e-001	0.000000e+000
6.794135549755856e-006	4.033570e-001	0.000000e+000
6.795110463484972e-006	4.033280e-001	0.000000e+000
6.796041740067383e-006	4.033010e-001	0.000000e+000
6.797169847176547e-006	4.032688e-001	0.000000e+000
6.798185777731413e-006	4.032407e-001	0.000000e+000
6.799582982131441e-006	4.032026e-001	0.000000e+000
6.800856715695889e-006	4.031691e-001	0.000000e+000
6.802864316059589e-006	4.031177e-001	0.000000e+000
6.804746037031933e-006	4.030718e-001	0.000000e+000
6.808509478976622e-006	4.029845e-001	0.000000e+000
6.812138619073639e-006	4.029068e-001	0.000000e+000
6.819396899267672e-006	4.027681e-001	0.000000e+000
6.829486945743349e-006	4.026075e-001	0.000000e+000
6.849018195743349e-006	4.023672e-001	0.000000e+000
6.868549445743349e-006	4.021925e-001	0.000000e+000
6.888080695743350e-006	4.020730e-001	0.000000e+000
6.907611945743350e-006	4.019912e-001	0.000000e+000
6.927143195743350e-006	4.019351e-001	0.000000e+000
6.946674445743350e-006	4.018965e-001	0.000000e+000
6.966205695743350e-006	4.018699e-001	0.000000e+000
6.985736945743350e-006	4.018514e-001	0.000000e+000
7.005268195743350e-006	4.018386e-001	0.000000e+000
7.024799445743350e-006	4.018295e-001	0.000000e+000
7.044330695743350e-006	4.018230e-001	0.000000e+000
7.063861945743350e-006	4.018184e-001	0.000000e+000
7.083393195743350e-006	4.018149e-001	0.000000e+000
7.102924445743349e-006	4.018122e-001	0.000000e+000
7.122455695743349e-006	4.018101e-001	0.000000e+000
7.141986945743349e-006	4.018084e-001	0.000000e+000
7.161518195743349e-006	4.018070e-001	0.000000e+000
