time	V(gate)	V(n002)
0.000000000000000e+000	-2.043095e-017	0.000000e+000
9.999999925207742e-012	1.631120e-003	1.000000e-002
2.999999977562323e-011	4.907530e-003	3.000000e-002
6.999999947634832e-011	1.152950e-002	7.000000e-002
1.499999988777985e-010	2.499909e-002	1.500000e-001
2.499999988778060e-010	4.221079e-002	2.500000e-001
3.499999988778135e-010	5.986550e-002	3.500000e-001
4.499999988778210e-010	7.798406e-002	4.500000e-001
5.499999988778285e-010	9.656384e-002	5.500000e-001
6.499999988778361e-010	1.156022e-001	6.500000e-001
7.499999988778436e-010	1.350965e-001	7.500000e-001
8.499999988778511e-010	1.550443e-001	8.500000e-001
9.499999988778586e-010	1.754428e-001	9.500000e-001
1.049999998877866e-009	1.962895e-001	1.050000e+000
1.149999998877874e-009	2.175819e-001	1.150000e+000
1.249999998877881e-009	2.393174e-001	1.250000e+000
1.349999998877889e-009	2.614936e-001	1.350000e+000
1.449999998877896e-009	2.841078e-001	1.450000e+000
1.549999998877904e-009	3.071577e-001	1.550000e+000
1.649999998877911e-009	3.306406e-001	1.650000e+000
1.749999998877919e-009	3.545542e-001	1.750000e+000
1.849999998877926e-009	3.788960e-001	1.850000e+000
2.049999998877941e-009	4.288543e-001	2.050000e+000
2.249999998877956e-009	4.804963e-001	2.250000e+000
2.449999998877971e-009	5.338027e-001	2.450000e+000
2.649999998877986e-009	5.887548e-001	2.650000e+000
2.949999998878009e-009	6.742272e-001	2.950000e+000
3.249999998878031e-009	7.632976e-001	3.250000e+000
3.549999998878054e-009	8.559048e-001	3.550000e+000
4.092857141735238e-009	1.033083e+000	4.092857e+000
4.635714284592422e-009	1.220481e+000	4.635714e+000
5.178571427449605e-009	1.418097e+000	5.178571e+000
5.721428570306789e-009	1.625933e+000	5.721428e+000
6.264285713163973e-009	1.843987e+000	6.264286e+000
6.807142856021156e-009	2.072261e+000	6.807143e+000
7.349999998878339e-009	2.310753e+000	7.350000e+000
7.729999999038588e-009	2.483122e+000	7.731659e+000
8.109999999198835e-009	2.659471e+000	8.112288e+000
8.489999999359083e-009	2.839801e+000	8.491889e+000
8.869999999519331e-009	3.024112e+000	8.870460e+000
9.249999999679580e-009	3.212403e+000	9.248002e+000
9.629999999839827e-009	3.404676e+000	9.624516e+000
1.001000000000007e-008	3.600930e+000	1.000000e+001
1.057285714285727e-008	3.799880e+000	1.000000e+001
1.113571428571446e-008	3.992971e+000	1.000000e+001
1.169857142857165e-008	4.180203e+000	1.000000e+001
1.226142857142884e-008	4.361575e+000	1.000000e+001
1.282428571428603e-008	4.537089e+000	1.000000e+001
1.338714285714322e-008	4.706743e+000	1.000000e+001
1.395000000000041e-008	4.870539e+000	1.000000e+001
1.425000000000044e-008	4.954847e+000	1.000000e+001
1.435000000000044e-008	4.982044e+000	1.000000e+001
1.445000000000045e-008	5.008549e+000	1.000000e+001
1.455000000000046e-008	5.034170e+000	1.000000e+001
1.465000000000047e-008	5.058701e+000	1.000000e+001
1.475000000000047e-008	5.081936e+000	1.000000e+001
1.485000000000048e-008	5.103697e+000	1.000000e+001
1.495000000000049e-008	5.123841e+000	1.000000e+001
1.505000000000050e-008	5.142279e+000	1.000000e+001
1.515000000000050e-008	5.158970e+000	1.000000e+001
1.525000000000051e-008	5.173929e+000	1.000000e+001
1.535000000000052e-008	5.187210e+000	1.000000e+001
1.545000000000053e-008	5.198902e+000	1.000000e+001
1.555000000000053e-008	5.209116e+000	1.000000e+001
1.565000000000054e-008	5.217977e+000	1.000000e+001
1.575000000000055e-008	5.225617e+000	1.000000e+001
1.585000000000056e-008	5.232165e+000	1.000000e+001
1.595000000000056e-008	5.237749e+000	1.000000e+001
1.605000000000057e-008	5.242483e+000	1.000000e+001
1.625000000000059e-008	5.249825e+000	1.000000e+001
1.637857142857202e-008	5.253073e+000	1.000000e+001
1.650714285714346e-008	5.255819e+000	1.000000e+001
1.663571428571490e-008	5.258063e+000	1.000000e+001
1.676428571428634e-008	5.259804e+000	1.000000e+001
1.689285714285778e-008	5.261042e+000	1.000000e+001
1.702142857142922e-008	5.261778e+000	1.000000e+001
1.715000000000065e-008	5.262012e+000	1.000000e+001
1.765000000000069e-008	5.260278e+000	1.000000e+001
1.815000000000073e-008	5.257267e+000	1.000000e+001
1.865000000000077e-008	5.252978e+000	1.000000e+001
1.915000000000080e-008	5.247411e+000	1.000000e+001
1.965000000000084e-008	5.240566e+000	1.000000e+001
2.015000000000088e-008	5.232442e+000	1.000000e+001
2.065000000000092e-008	5.223041e+000	1.000000e+001
2.096428571428666e-008	5.218090e+000	1.000000e+001
2.127857142857239e-008	5.213628e+000	1.000000e+001
2.159285714285813e-008	5.209657e+000	1.000000e+001
2.190714285714387e-008	5.206174e+000	1.000000e+001
2.222142857142961e-008	5.203182e+000	1.000000e+001
2.253571428571534e-008	5.200679e+000	1.000000e+001
2.285000000000108e-008	5.198667e+000	1.000000e+001
2.342142857142970e-008	5.196414e+000	1.000000e+001
2.399285714285831e-008	5.194597e+000	1.000000e+001
2.456428571428693e-008	5.193214e+000	1.000000e+001
2.513571428571554e-008	5.192266e+000	1.000000e+001
2.570714285714415e-008	5.191752e+000	1.000000e+001
2.627857142857277e-008	5.191673e+000	1.000000e+001
2.685000000000138e-008	5.192029e+000	1.000000e+001
2.829285714285863e-008	5.192649e+000	1.000000e+001
2.973571428571589e-008	5.193603e+000	1.000000e+001
3.117857142857314e-008	5.194891e+000	1.000000e+001
3.262142857143039e-008	5.196514e+000	1.000000e+001
3.406428571428764e-008	5.198471e+000	1.000000e+001
3.550714285714489e-008	5.200762e+000	1.000000e+001
3.695000000000214e-008	5.203388e+000	1.000000e+001
3.716428571428787e-008	5.203745e+000	1.000000e+001
3.737857142857360e-008	5.204188e+000	1.000000e+001
3.759285714285934e-008	5.204716e+000	1.000000e+001
3.780714285714506e-008	5.205331e+000	1.000000e+001
3.802142857143079e-008	5.206030e+000	1.000000e+001
3.823571428571652e-008	5.206815e+000	1.000000e+001
3.845000000000225e-008	5.207686e+000	1.000000e+001
3.855000000000226e-008	5.208953e+000	1.000000e+001
3.865000000000227e-008	5.210894e+000	1.000000e+001
3.875000000000228e-008	5.213607e+000	1.000000e+001
3.885000000000228e-008	5.217142e+000	1.000000e+001
3.895000000000229e-008	5.221509e+000	1.000000e+001
3.905000000000230e-008	5.226687e+000	1.000000e+001
3.915000000000231e-008	5.232632e+000	1.000000e+001
3.925000000000231e-008	5.239284e+000	1.000000e+001
3.935000000000232e-008	5.246574e+000	1.000000e+001
3.945000000000233e-008	5.254429e+000	1.000000e+001
3.955000000000234e-008	5.262775e+000	1.000000e+001
3.965000000000234e-008	5.271545e+000	1.000000e+001
3.975000000000235e-008	5.280672e+000	1.000000e+001
3.985000000000236e-008	5.290100e+000	1.000000e+001
3.995000000000237e-008	5.299777e+000	1.000000e+001
4.005000000000237e-008	5.309658e+000	1.000000e+001
4.015000000000238e-008	5.319708e+000	1.000000e+001
4.035000000000240e-008	5.340190e+000	1.000000e+001
4.055000000000241e-008	5.361033e+000	1.000000e+001
4.075000000000243e-008	5.382108e+000	1.000000e+001
4.105000000000245e-008	5.413979e+000	1.000000e+001
4.135000000000247e-008	5.446006e+000	1.000000e+001
4.165000000000249e-008	5.478082e+000	1.000000e+001
4.189285714285966e-008	5.504070e+000	1.000000e+001
4.213571428571682e-008	5.529983e+000	1.000000e+001
4.237857142857398e-008	5.555821e+000	1.000000e+001
4.262142857143114e-008	5.581583e+000	1.000000e+001
4.286428571428830e-008	5.607269e+000	1.000000e+001
4.310714285714546e-008	5.632880e+000	1.000000e+001
4.335000000000262e-008	5.658415e+000	1.000000e+001
4.372142857143122e-008	5.697238e+000	1.000000e+001
4.409285714285982e-008	5.735772e+000	1.000000e+001
4.446428571428842e-008	5.774017e+000	1.000000e+001
4.483571428571702e-008	5.811974e+000	1.000000e+001
4.520714285714562e-008	5.849642e+000	1.000000e+001
4.557857142857422e-008	5.887020e+000	1.000000e+001
4.595000000000282e-008	5.924110e+000	1.000000e+001
4.652142857143143e-008	5.980548e+000	1.000000e+001
4.709285714286005e-008	6.036265e+000	1.000000e+001
4.766428571428866e-008	6.091261e+000	1.000000e+001
4.823571428571727e-008	6.145536e+000	1.000000e+001
4.880714285714589e-008	6.199089e+000	1.000000e+001
4.937857142857451e-008	6.251922e+000	1.000000e+001
4.995000000000312e-008	6.304034e+000	1.000000e+001
5.085000000000319e-008	6.384621e+000	1.000000e+001
5.175000000000325e-008	6.463564e+000	1.000000e+001
5.265000000000332e-008	6.540861e+000	1.000000e+001
5.355000000000339e-008	6.616513e+000	1.000000e+001
5.445000000000346e-008	6.690520e+000	1.000000e+001
5.535000000000352e-008	6.762883e+000	1.000000e+001
5.625000000000359e-008	6.833600e+000	1.000000e+001
5.770714285714656e-008	6.944666e+000	1.000000e+001
5.916428571428953e-008	7.052158e+000	1.000000e+001
6.062142857143249e-008	7.156074e+000	1.000000e+001
6.207857142857546e-008	7.256416e+000	1.000000e+001
6.353571428571843e-008	7.353184e+000	1.000000e+001
6.499285714286139e-008	7.446376e+000	1.000000e+001
6.645000000000436e-008	7.535994e+000	1.000000e+001
6.890714285714740e-008	7.679408e+000	1.000000e+001
7.136428571429045e-008	7.815510e+000	1.000000e+001
7.382142857143348e-008	7.944299e+000	1.000000e+001
7.627857142857653e-008	8.065776e+000	1.000000e+001
7.873571428571957e-008	8.179940e+000	1.000000e+001
8.119285714286262e-008	8.286792e+000	1.000000e+001
8.365000000000565e-008	8.386332e+000	1.000000e+001
8.622142857143441e-008	8.484461e+000	1.000000e+001
8.879285714286318e-008	8.577388e+000	1.000000e+001
9.136428571429195e-008	8.665111e+000	1.000000e+001
9.393571428572071e-008	8.747631e+000	1.000000e+001
9.650714285714948e-008	8.824948e+000	1.000000e+001
9.907857142857824e-008	8.897062e+000	1.000000e+001
1.016500000000070e-007	8.963972e+000	1.000000e+001
1.017500000000070e-007	8.966520e+000	1.000000e+001
1.054642857142930e-007	9.055331e+000	1.000000e+001
1.091785714285790e-007	9.137806e+000	1.000000e+001
1.128928571428650e-007	9.213944e+000	1.000000e+001
1.166071428571510e-007	9.283747e+000	1.000000e+001
1.203214285714370e-007	9.347213e+000	1.000000e+001
1.240357142857230e-007	9.404343e+000	1.000000e+001
1.277500000000090e-007	9.455137e+000	1.000000e+001
1.314642857142950e-007	9.501963e+000	1.000000e+001
1.351785714285810e-007	9.545448e+000	1.000000e+001
1.388928571428669e-007	9.585592e+000	1.000000e+001
1.426071428571529e-007	9.622395e+000	1.000000e+001
1.463214285714389e-007	9.655856e+000	1.000000e+001
1.500357142857249e-007	9.685976e+000	1.000000e+001
1.537500000000109e-007	9.712755e+000	1.000000e+001
1.574642857142969e-007	9.737442e+000	1.000000e+001
1.611785714285829e-007	9.760368e+000	1.000000e+001
1.648928571428689e-007	9.781532e+000	1.000000e+001
1.686071428571549e-007	9.800934e+000	1.000000e+001
1.723214285714409e-007	9.818575e+000	1.000000e+001
1.760357142857269e-007	9.834454e+000	1.000000e+001
1.797500000000129e-007	9.848572e+000	1.000000e+001
1.832214285714417e-007	9.860795e+000	1.000000e+001
1.866928571428705e-007	9.872190e+000	1.000000e+001
1.901642857142994e-007	9.882759e+000	1.000000e+001
1.936357142857282e-007	9.892500e+000	1.000000e+001
1.971071428571570e-007	9.901413e+000	1.000000e+001
2.005785714285859e-007	9.909500e+000	1.000000e+001
2.040500000000147e-007	9.916759e+000	1.000000e+001
2.041500000000147e-007	9.916964e+000	1.000000e+001
2.078642857143007e-007	9.924100e+000	1.000000e+001
2.115785714285867e-007	9.930727e+000	1.000000e+001
2.152928571428727e-007	9.936845e+000	1.000000e+001
2.190071428571587e-007	9.942454e+000	1.000000e+001
2.227214285714447e-007	9.947554e+000	1.000000e+001
2.264357142857307e-007	9.952144e+000	1.000000e+001
2.301500000000167e-007	9.956225e+000	1.000000e+001
2.338642857143027e-007	9.959988e+000	1.000000e+001
2.375785714285887e-007	9.963481e+000	1.000000e+001
2.412928571428747e-007	9.966707e+000	1.000000e+001
2.450071428571607e-007	9.969664e+000	1.000000e+001
2.487214285714466e-007	9.972352e+000	1.000000e+001
2.524357142857326e-007	9.974772e+000	1.000000e+001
2.561500000000186e-007	9.976924e+000	1.000000e+001
2.598642857143046e-007	9.978907e+000	1.000000e+001
2.635785714285906e-007	9.980749e+000	1.000000e+001
2.672928571428766e-007	9.982449e+000	1.000000e+001
2.710071428571626e-007	9.984008e+000	1.000000e+001
2.747214285714486e-007	9.985425e+000	1.000000e+001
2.784357142857346e-007	9.986701e+000	1.000000e+001
2.821500000000206e-007	9.987835e+000	1.000000e+001
2.856214285714494e-007	9.988817e+000	1.000000e+001
2.890928571428783e-007	9.989732e+000	1.000000e+001
2.925642857143071e-007	9.990582e+000	1.000000e+001
2.960357142857359e-007	9.991364e+000	1.000000e+001
2.995071428571648e-007	9.992080e+000	1.000000e+001
3.029785714285936e-007	9.992730e+000	1.000000e+001
3.064500000000224e-007	9.993313e+000	1.000000e+001
3.065500000000224e-007	9.993329e+000	1.000000e+001
3.102642857143084e-007	9.993903e+000	1.000000e+001
3.139785714285944e-007	9.994435e+000	1.000000e+001
3.176928571428804e-007	9.994927e+000	1.000000e+001
3.214071428571664e-007	9.995377e+000	1.000000e+001
3.251214285714524e-007	9.995787e+000	1.000000e+001
3.288357142857384e-007	9.996156e+000	1.000000e+001
3.325500000000244e-007	9.996484e+000	1.000000e+001
3.362642857143104e-007	9.996786e+000	1.000000e+001
3.399785714285964e-007	9.997067e+000	1.000000e+001
3.436928571428824e-007	9.997326e+000	1.000000e+001
3.474071428571684e-007	9.997563e+000	1.000000e+001
3.511214285714543e-007	9.997779e+000	1.000000e+001
3.548357142857403e-007	9.997973e+000	1.000000e+001
3.585500000000263e-007	9.998146e+000	1.000000e+001
3.622642857143123e-007	9.998306e+000	1.000000e+001
3.659785714285983e-007	9.998454e+000	1.000000e+001
3.696928571428843e-007	9.998590e+000	1.000000e+001
3.734071428571703e-007	9.998716e+000	1.000000e+001
3.771214285714563e-007	9.998829e+000	1.000000e+001
3.808357142857423e-007	9.998932e+000	1.000000e+001
3.845500000000283e-007	9.999022e+000	1.000000e+001
3.880214285714571e-007	9.999101e+000	1.000000e+001
3.914928571428859e-007	9.999175e+000	1.000000e+001
3.949642857143148e-007	9.999243e+000	1.000000e+001
3.984357142857436e-007	9.999306e+000	1.000000e+001
4.019071428571725e-007	9.999364e+000	1.000000e+001
4.053785714286013e-007	9.999416e+000	1.000000e+001
4.088500000000301e-007	9.999463e+000	1.000000e+001
4.089500000000301e-007	9.999464e+000	1.000000e+001
4.126785714286018e-007	9.999510e+000	1.000000e+001
4.164071428571735e-007	9.999553e+000	1.000000e+001
4.201357142857452e-007	9.999592e+000	1.000000e+001
4.238642857143169e-007	9.999629e+000	1.000000e+001
4.275928571428887e-007	9.999662e+000	1.000000e+001
4.313214285714603e-007	9.999692e+000	1.000000e+001
4.350500000000321e-007	9.999719e+000	1.000000e+001
4.387928571428895e-007	9.999743e+000	1.000000e+001
4.425357142857469e-007	9.999765e+000	1.000000e+001
4.462785714286043e-007	9.999786e+000	1.000000e+001
4.500214285714617e-007	9.999805e+000	1.000000e+001
4.537642857143192e-007	9.999823e+000	1.000000e+001
4.575071428571766e-007	9.999838e+000	1.000000e+001
4.612500000000340e-007	9.999852e+000	1.000000e+001
4.650214285714629e-007	9.999865e+000	1.000000e+001
4.687928571428918e-007	9.999877e+000	1.000000e+001
4.725642857143206e-007	9.999888e+000	1.000000e+001
4.763357142857494e-007	9.999898e+000	1.000000e+001
4.801071428571783e-007	9.999907e+000	1.000000e+001
4.838785714286072e-007	9.999915e+000	1.000000e+001
4.876500000000360e-007	9.999923e+000	1.000000e+001
4.910214285714648e-007	9.999929e+000	1.000000e+001
4.943928571428936e-007	9.999934e+000	1.000000e+001
4.977642857143224e-007	9.999939e+000	1.000000e+001
5.011357142857514e-007	9.999944e+000	1.000000e+001
5.045071428571802e-007	9.999949e+000	1.000000e+001
5.078785714286090e-007	9.999953e+000	1.000000e+001
5.112500000000378e-007	9.999957e+000	1.000000e+001
5.113500000000378e-007	9.999957e+000	1.000000e+001
5.152357142857524e-007	9.999961e+000	1.000000e+001
5.191214285714669e-007	9.999965e+000	1.000000e+001
5.230071428571816e-007	9.999968e+000	1.000000e+001
5.268928571428961e-007	9.999971e+000	1.000000e+001
5.307785714286107e-007	9.999974e+000	1.000000e+001
5.346642857143252e-007	9.999976e+000	1.000000e+001
5.385500000000398e-007	9.999978e+000	1.000000e+001
5.425928571428972e-007	9.999980e+000	1.000000e+001
5.466357142857548e-007	9.999982e+000	1.000000e+001
5.506785714286122e-007	9.999984e+000	1.000000e+001
5.547214285714696e-007	9.999985e+000	1.000000e+001
5.587642857143270e-007	9.999987e+000	1.000000e+001
5.628071428571845e-007	9.999988e+000	1.000000e+001
5.668500000000420e-007	9.999989e+000	1.000000e+001
5.712071428571852e-007	9.999990e+000	1.000000e+001
5.755642857143283e-007	9.999991e+000	1.000000e+001
5.799214285714715e-007	9.999992e+000	1.000000e+001
5.842785714286147e-007	9.999993e+000	1.000000e+001
5.886357142857579e-007	9.999994e+000	1.000000e+001
5.929928571429010e-007	9.999995e+000	1.000000e+001
5.973500000000442e-007	9.999995e+000	1.000000e+001
5.996785714286159e-007	9.999996e+000	1.000000e+001
6.020071428571875e-007	9.999996e+000	1.000000e+001
6.043357142857591e-007	9.999996e+000	1.000000e+001
6.066642857143306e-007	9.999996e+000	1.000000e+001
6.089928571429022e-007	9.999996e+000	1.000000e+001
6.113214285714739e-007	9.999996e+000	1.000000e+001
6.136500000000455e-007	9.999996e+000	1.000000e+001
6.137500000000455e-007	9.999996e+000	1.000000e+001
6.192071428571888e-007	9.999997e+000	1.000000e+001
6.246642857143320e-007	9.999997e+000	1.000000e+001
6.301214285714753e-007	9.999998e+000	1.000000e+001
6.355785714286186e-007	9.999998e+000	1.000000e+001
6.410357142857619e-007	9.999999e+000	1.000000e+001
6.464928571429051e-007	9.999999e+000	1.000000e+001
6.519500000000484e-007	9.999999e+000	1.000000e+001
6.592500000000489e-007	9.999999e+000	1.000000e+001
6.665500000000494e-007	9.999999e+000	1.000000e+001
6.738500000000500e-007	9.999999e+000	1.000000e+001
6.811500000000505e-007	9.999999e+000	1.000000e+001
6.884500000000511e-007	9.999999e+000	1.000000e+001
6.957500000000516e-007	1.000000e+001	1.000000e+001
7.030500000000522e-007	1.000000e+001	1.000000e+001
7.161500000000532e-007	1.000000e+001	1.000000e+001
7.295500000000542e-007	1.000000e+001	1.000000e+001
7.429500000000552e-007	1.000000e+001	1.000000e+001
7.563500000000562e-007	1.000000e+001	1.000000e+001
7.697500000000572e-007	1.000000e+001	1.000000e+001
7.831500000000582e-007	1.000000e+001	1.000000e+001
7.965500000000592e-007	1.000000e+001	1.000000e+001
8.099500000000602e-007	1.000000e+001	1.000000e+001
8.185500000000609e-007	1.000000e+001	1.000000e+001
9.209500000000686e-007	1.000000e+001	1.000000e+001
1.023350000000076e-006	1.000000e+001	1.000000e+001
1.125750000000084e-006	1.000000e+001	1.000000e+001
1.228150000000092e-006	1.000000e+001	1.000000e+001
1.330550000000099e-006	1.000000e+001	1.000000e+001
1.432950000000107e-006	1.000000e+001	1.000000e+001
1.535350000000115e-006	1.000000e+001	1.000000e+001
1.637750000000123e-006	1.000000e+001	1.000000e+001
1.740150000000130e-006	1.000000e+001	1.000000e+001
1.842550000000138e-006	1.000000e+001	1.000000e+001
1.944950000000146e-006	1.000000e+001	1.000000e+001
2.047350000000153e-006	1.000000e+001	1.000000e+001
2.149750000000161e-006	1.000000e+001	1.000000e+001
2.252150000000169e-006	1.000000e+001	1.000000e+001
2.354550000000176e-006	1.000000e+001	1.000000e+001
2.456950000000184e-006	1.000000e+001	1.000000e+001
2.559350000000192e-006	1.000000e+001	1.000000e+001
2.661750000000199e-006	1.000000e+001	1.000000e+001
2.764150000000207e-006	1.000000e+001	1.000000e+001
2.866550000000215e-006	1.000000e+001	1.000000e+001
2.968950000000223e-006	1.000000e+001	1.000000e+001
3.071350000000230e-006	1.000000e+001	1.000000e+001
3.173750000000238e-006	1.000000e+001	1.000000e+001
3.276150000000246e-006	1.000000e+001	1.000000e+001
3.378550000000253e-006	1.000000e+001	1.000000e+001
3.480950000000261e-006	1.000000e+001	1.000000e+001
3.583350000000269e-006	1.000000e+001	1.000000e+001
3.685750000000276e-006	1.000000e+001	1.000000e+001
3.788150000000284e-006	1.000000e+001	1.000000e+001
3.890550000000292e-006	1.000000e+001	1.000000e+001
3.992950000000300e-006	1.000000e+001	1.000000e+001
