time	V(drain)	V(gate)	Id(M1)
0.000000000000000e+000	1.500000e+001	-2.043095e-017	1.650006e-011
9.999999925207742e-012	1.500000e+001	1.631120e-003	-1.912639e-008
2.999999977562323e-011	1.500001e+001	4.907530e-003	-9.870013e-008
6.999999947634832e-011	1.500007e+001	1.152950e-002	-4.589068e-007
1.499999988777985e-010	1.500028e+001	2.499909e-002	-1.834738e-006
2.499999988778060e-010	1.500070e+001	4.221079e-002	-4.641591e-006
3.499999988778135e-010	1.500131e+001	5.986550e-002	-8.731766e-006
4.499999988778210e-010	1.500212e+001	7.798406e-002	-1.416341e-005
5.499999988778285e-010	1.500314e+001	9.656384e-002	-2.092649e-005
6.499999988778361e-010	1.500435e+001	1.156022e-001	-2.901105e-005
7.499999988778436e-010	1.500576e+001	1.350965e-001	-3.840725e-005
8.499999988778511e-010	1.500737e+001	1.550443e-001	-4.910533e-005
9.499999988778586e-010	1.500916e+001	1.754428e-001	-6.109564e-005
1.049999998877866e-009	1.501116e+001	1.962895e-001	-7.436862e-005
1.149999998877874e-009	1.501334e+001	2.175819e-001	-8.891480e-005
1.249999998877881e-009	1.501571e+001	2.393174e-001	-1.047248e-004
1.349999998877889e-009	1.501827e+001	2.614936e-001	-1.217894e-004
1.449999998877896e-009	1.502102e+001	2.841078e-001	-1.400993e-004
1.549999998877904e-009	1.502395e+001	3.071577e-001	-1.596455e-004
1.649999998877911e-009	1.502706e+001	3.306406e-001	-1.804189e-004
1.749999998877919e-009	1.503036e+001	3.545542e-001	-2.024107e-004
1.849999998877926e-009	1.503384e+001	3.788960e-001	-2.256128e-004
2.049999998877941e-009	1.504134e+001	4.288543e-001	-2.756114e-004
2.249999998877956e-009	1.504955e+001	4.804963e-001	-3.303413e-004
2.449999998877971e-009	1.505846e+001	5.338027e-001	-3.897375e-004
2.649999998877986e-009	1.506806e+001	5.887548e-001	-4.537337e-004
2.949999998878009e-009	1.508373e+001	6.742272e-001	-5.582109e-004
3.249999998878031e-009	1.510090e+001	7.632976e-001	-6.726772e-004
3.549999998878054e-009	1.511954e+001	8.559048e-001	-7.969245e-004
4.092857141735238e-009	1.515727e+001	1.033083e+000	-1.048491e-003
4.635714284592422e-009	1.519915e+001	1.220481e+000	-1.327698e-003
5.178571427449605e-009	1.524518e+001	1.418097e+000	-1.634547e-003
5.721428570306789e-009	1.529535e+001	1.625933e+000	-1.969037e-003
6.264285713163973e-009	1.534967e+001	1.843987e+000	-2.331168e-003
6.807142856021156e-009	1.540814e+001	2.072261e+000	-2.720940e-003
7.349999998878339e-009	1.547075e+001	2.310753e+000	-3.138354e-003
7.729999999038588e-009	1.551661e+001	2.483122e+000	-3.444102e-003
8.109999999198835e-009	1.556413e+001	2.659471e+000	-3.760899e-003
8.489999999359083e-009	1.561331e+001	2.839801e+000	-4.088745e-003
8.869999999519331e-009	1.566415e+001	3.024112e+000	-4.427641e-003
9.249999999679580e-009	1.571664e+001	3.212403e+000	-4.777586e-003
9.629999999839827e-009	1.577079e+001	3.404676e+000	-5.138580e-003
1.001000000000007e-008	1.582659e+001	3.600930e+000	-5.510624e-003
1.057285714285727e-008	1.590871e+001	3.799880e+000	-6.058086e-003
1.113571428571446e-008	1.598741e+001	3.992971e+000	-6.582726e-003
1.169857142857165e-008	1.606268e+001	4.180203e+000	-7.084543e-003
1.226142857142884e-008	1.613453e+001	4.361575e+000	-7.563537e-003
1.282428571428603e-008	1.620296e+001	4.537089e+000	-8.019709e-003
1.338714285714322e-008	1.626796e+001	4.706743e+000	-8.453057e-003
1.395000000000041e-008	1.632954e+001	4.870539e+000	-8.863583e-003
1.425000000000044e-008	1.634687e+001	4.954847e+000	-8.979160e-003
1.435000000000044e-008	1.634483e+001	4.982044e+000	-8.965528e-003
1.445000000000045e-008	1.633570e+001	5.008549e+000	-8.904703e-003
1.455000000000046e-008	1.631698e+001	5.034170e+000	-8.779869e-003
1.465000000000047e-008	1.628593e+001	5.058701e+000	-8.572886e-003
1.475000000000047e-008	1.623990e+001	5.081936e+000	-8.265992e-003
1.485000000000048e-008	1.617654e+001	5.103697e+000	-7.843613e-003
1.495000000000049e-008	1.609408e+001	5.123841e+000	-7.293865e-003
1.505000000000050e-008	1.599142e+001	5.142279e+000	-6.609492e-003
1.515000000000050e-008	1.586822e+001	5.158970e+000	-5.788154e-003
1.525000000000051e-008	1.572482e+001	5.173929e+000	-4.832148e-003
1.535000000000052e-008	1.556216e+001	5.187210e+000	-3.747712e-003
1.545000000000053e-008	1.538162e+001	5.198902e+000	-2.544131e-003
1.555000000000053e-008	1.518492e+001	5.209116e+000	-1.232777e-003
1.565000000000054e-008	1.497393e+001	5.217977e+000	1.737727e-004
1.575000000000055e-008	1.475063e+001	5.225617e+000	1.665232e-003
1.585000000000056e-008	1.451694e+001	5.232165e+000	3.228224e-003
1.595000000000056e-008	1.427471e+001	5.237749e+000	4.844489e-003
1.605000000000057e-008	1.402568e+001	5.242483e+000	6.503087e-003
1.625000000000059e-008	1.351338e+001	5.249825e+000	9.915865e-003
1.637857142857202e-008	1.317431e+001	5.253073e+000	1.217520e-002
1.650714285714346e-008	1.283739e+001	5.255819e+000	1.442028e-002
1.663571428571490e-008	1.250261e+001	5.258063e+000	1.665112e-002
1.676428571428634e-008	1.216999e+001	5.259804e+000	1.886771e-002
1.689285714285778e-008	1.183951e+001	5.261042e+000	2.107005e-002
1.702142857142922e-008	1.151118e+001	5.261778e+000	2.325815e-002
1.715000000000065e-008	1.118499e+001	5.262012e+000	2.543199e-002
1.765000000000069e-008	9.986924e+000	5.260278e+000	3.341412e-002
1.815000000000073e-008	8.913709e+000	5.257267e+000	4.056349e-002
1.865000000000077e-008	7.965349e+000	5.252978e+000	4.688011e-002
1.915000000000080e-008	7.141845e+000	5.247411e+000	5.236398e-002
1.965000000000084e-008	6.443197e+000	5.240566e+000	5.701509e-002
2.015000000000088e-008	5.869404e+000	5.232442e+000	6.083345e-002
2.065000000000092e-008	5.420466e+000	5.223041e+000	6.381906e-002
2.096428571428666e-008	5.186859e+000	5.218090e+000	6.538178e-002
2.127857142857239e-008	4.972876e+000	5.213628e+000	6.681372e-002
2.159285714285813e-008	4.778518e+000	5.209657e+000	6.811487e-002
2.190714285714387e-008	4.603785e+000	5.206174e+000	6.928523e-002
2.222142857142961e-008	4.448677e+000	5.203182e+000	7.032481e-002
2.253571428571534e-008	4.313194e+000	5.200679e+000	7.123360e-002
2.285000000000108e-008	4.197336e+000	5.198667e+000	7.201160e-002
2.342142857142970e-008	4.001132e+000	5.196414e+000	7.332199e-002
2.399285714285831e-008	3.814219e+000	5.194597e+000	7.456995e-002
2.456428571428693e-008	3.636595e+000	5.193214e+000	7.575548e-002
2.513571428571554e-008	3.468262e+000	5.192266e+000	7.687858e-002
2.570714285714415e-008	3.309219e+000	5.191752e+000	7.793925e-002
2.627857142857277e-008	3.159467e+000	5.191673e+000	7.893748e-002
2.685000000000138e-008	3.019005e+000	5.192029e+000	7.987329e-002
2.829285714285863e-008	2.662657e+000	5.192649e+000	8.224894e-002
2.973571428571589e-008	2.309273e+000	5.193603e+000	8.460484e-002
3.117857142857314e-008	1.958854e+000	5.194891e+000	8.694098e-002
3.262142857143039e-008	1.611398e+000	5.196514e+000	8.925735e-002
3.406428571428764e-008	1.266906e+000	5.198471e+000	9.155396e-002
3.550714285714489e-008	9.253789e-001	5.200762e+000	9.383081e-002
3.695000000000214e-008	5.868155e-001	5.203388e+000	9.608790e-002
3.716428571428787e-008	5.361499e-001	5.203745e+000	9.642555e-002
3.737857142857360e-008	4.856613e-001	5.204188e+000	9.676210e-002
3.759285714285934e-008	4.353496e-001	5.204716e+000	9.709754e-002
3.780714285714506e-008	3.852150e-001	5.205331e+000	9.743188e-002
3.802142857143079e-008	3.352573e-001	5.206030e+000	9.776510e-002
3.823571428571652e-008	2.854766e-001	5.206815e+000	9.809722e-002
3.845000000000225e-008	2.358729e-001	5.207686e+000	9.842823e-002
3.855000000000226e-008	2.144392e-001	5.208953e+000	9.857136e-002
3.865000000000227e-008	1.943703e-001	5.210894e+000	9.870461e-002
3.875000000000228e-008	1.758729e-001	5.213607e+000	9.882751e-002
3.885000000000228e-008	1.590558e-001	5.217142e+000	9.893963e-002
3.895000000000229e-008	1.439464e-001	5.221509e+000	9.904036e-002
3.905000000000230e-008	1.305085e-001	5.226687e+000	9.912995e-002
3.915000000000231e-008	1.186582e-001	5.232632e+000	9.920894e-002
3.925000000000231e-008	1.082790e-001	5.239284e+000	9.927814e-002
3.935000000000232e-008	9.923512e-002	5.246574e+000	9.933843e-002
3.945000000000233e-008	9.138164e-002	5.254429e+000	9.939079e-002
3.955000000000234e-008	8.457345e-002	5.262775e+000	9.943618e-002
3.965000000000234e-008	7.867123e-002	5.271545e+000	9.947553e-002
3.975000000000235e-008	7.354580e-002	5.280672e+000	9.950969e-002
3.985000000000236e-008	6.908061e-002	5.290100e+000	9.953946e-002
3.995000000000237e-008	6.517295e-002	5.299777e+000	9.956551e-002
4.005000000000237e-008	6.173405e-002	5.309658e+000	9.958844e-002
4.015000000000238e-008	5.868847e-002	5.319708e+000	9.960874e-002
4.035000000000240e-008	5.353497e-002	5.340190e+000	9.964310e-002
4.055000000000241e-008	4.932696e-002	5.361033e+000	9.967116e-002
4.075000000000243e-008	4.580547e-002	5.382108e+000	9.969463e-002
4.105000000000245e-008	4.144861e-002	5.413979e+000	9.972367e-002
4.135000000000247e-008	3.789292e-002	5.446006e+000	9.974738e-002
4.165000000000249e-008	3.492071e-002	5.478082e+000	9.976719e-002
4.189285714285966e-008	3.291639e-002	5.504070e+000	9.978055e-002
4.213571428571682e-008	3.107220e-002	5.529983e+000	9.979284e-002
4.237857142857398e-008	2.938813e-002	5.555821e+000	9.980406e-002
4.262142857143114e-008	2.786418e-002	5.581583e+000	9.981422e-002
4.286428571428830e-008	2.650035e-002	5.607269e+000	9.982331e-002
4.310714285714546e-008	2.529665e-002	5.632880e+000	9.983134e-002
4.335000000000262e-008	2.425307e-002	5.658415e+000	9.983830e-002
4.372142857143122e-008	2.279612e-002	5.697238e+000	9.984802e-002
4.409285714285982e-008	2.145831e-002	5.735772e+000	9.985694e-002
4.446428571428842e-008	2.023966e-002	5.774017e+000	9.986506e-002
4.483571428571702e-008	1.914016e-002	5.811974e+000	9.987239e-002
4.520714285714562e-008	1.815980e-002	5.849642e+000	9.987893e-002
4.557857142857422e-008	1.729859e-002	5.887020e+000	9.988467e-002
4.595000000000282e-008	1.655653e-002	5.924110e+000	9.988962e-002
4.652142857143143e-008	1.551727e-002	5.980548e+000	9.989655e-002
4.709285714286005e-008	1.456534e-002	6.036265e+000	9.990290e-002
4.766428571428866e-008	1.370075e-002	6.091261e+000	9.990866e-002
4.823571428571727e-008	1.292349e-002	6.145536e+000	9.991384e-002
4.880714285714589e-008	1.223357e-002	6.199089e+000	9.991844e-002
4.937857142857451e-008	1.163098e-002	6.251922e+000	9.992246e-002
4.995000000000312e-008	1.111573e-002	6.304034e+000	9.992589e-002
5.085000000000319e-008	1.038015e-002	6.384621e+000	9.993080e-002
5.175000000000325e-008	9.708815e-003	6.463564e+000	9.993527e-002
5.265000000000332e-008	9.101724e-003	6.540861e+000	9.993932e-002
5.355000000000339e-008	8.558877e-003	6.616513e+000	9.994294e-002
5.445000000000346e-008	8.080273e-003	6.690520e+000	9.994613e-002
5.535000000000352e-008	7.665913e-003	6.762883e+000	9.994890e-002
5.625000000000359e-008	7.315796e-003	6.833600e+000	9.995123e-002
5.770714285714656e-008	6.804580e-003	6.944666e+000	9.995464e-002
5.916428571428953e-008	6.340326e-003	7.052158e+000	9.995773e-002
6.062142857143249e-008	5.923036e-003	7.156074e+000	9.996051e-002
6.207857142857546e-008	5.552709e-003	7.256416e+000	9.996298e-002
6.353571428571843e-008	5.229345e-003	7.353184e+000	9.996514e-002
6.499285714286139e-008	4.952945e-003	7.446376e+000	9.996698e-002
6.645000000000436e-008	4.723507e-003	7.535994e+000	9.996851e-002
6.890714285714740e-008	4.377445e-003	7.679408e+000	9.997082e-002
7.136428571429045e-008	4.065649e-003	7.815510e+000	9.997290e-002
7.382142857143348e-008	3.788116e-003	7.944299e+000	9.997475e-002
7.627857142857653e-008	3.544849e-003	8.065776e+000	9.997637e-002
7.873571428571957e-008	3.335847e-003	8.179940e+000	9.997776e-002
8.119285714286262e-008	3.161109e-003	8.286792e+000	9.997893e-002
8.365000000000565e-008	3.020636e-003	8.386332e+000	9.997986e-002
8.622142857143441e-008	2.880640e-003	8.484461e+000	9.998080e-002
8.879285714286318e-008	2.752002e-003	8.577388e+000	9.998165e-002
9.136428571429195e-008	2.634723e-003	8.665111e+000	9.998244e-002
9.393571428572071e-008	2.528801e-003	8.747631e+000	9.998314e-002
9.650714285714948e-008	2.434238e-003	8.824948e+000	9.998377e-002
9.907857142857824e-008	2.351033e-003	8.897062e+000	9.998432e-002
1.016500000000070e-007	2.279186e-003	8.963972e+000	9.998480e-002
1.017500000000070e-007	2.276393e-003	8.966520e+000	9.998482e-002
1.054642857142930e-007	2.183097e-003	9.055331e+000	9.998545e-002
1.091785714285790e-007	2.098188e-003	9.137806e+000	9.998601e-002
1.128928571428650e-007	2.021666e-003	9.213944e+000	9.998652e-002
1.166071428571510e-007	1.953530e-003	9.283747e+000	9.998697e-002
1.203214285714370e-007	1.893780e-003	9.347213e+000	9.998737e-002
1.240357142857230e-007	1.842417e-003	9.404343e+000	9.998772e-002
1.277500000000090e-007	1.799440e-003	9.455137e+000	9.998801e-002
1.314642857142950e-007	1.759519e-003	9.501963e+000	9.998827e-002
1.351785714285810e-007	1.722819e-003	9.545448e+000	9.998851e-002
1.388928571428669e-007	1.689341e-003	9.585592e+000	9.998874e-002
1.426071428571529e-007	1.659084e-003	9.622395e+000	9.998894e-002
1.463214285714389e-007	1.632049e-003	9.655856e+000	9.998912e-002
1.500357142857249e-007	1.608236e-003	9.685976e+000	9.998928e-002
1.537500000000109e-007	1.587644e-003	9.712755e+000	9.998941e-002
1.574642857142969e-007	1.568639e-003	9.737442e+000	9.998954e-002
1.611785714285829e-007	1.551082e-003	9.760368e+000	9.998966e-002
1.648928571428689e-007	1.534973e-003	9.781532e+000	9.998977e-002
1.686071428571549e-007	1.520311e-003	9.800934e+000	9.998986e-002
1.723214285714409e-007	1.507097e-003	9.818575e+000	9.998995e-002
1.760357142857269e-007	1.495330e-003	9.834454e+000	9.999003e-002
1.797500000000129e-007	1.485012e-003	9.848572e+000	9.999010e-002
1.832214285714417e-007	1.476074e-003	9.860795e+000	9.999016e-002
1.866928571428705e-007	1.467763e-003	9.872190e+000	9.999022e-002
1.901642857142994e-007	1.460079e-003	9.882759e+000	9.999027e-002
1.936357142857282e-007	1.453022e-003	9.892500e+000	9.999032e-002
1.971071428571570e-007	1.446593e-003	9.901413e+000	9.999036e-002
2.005785714285859e-007	1.440790e-003	9.909500e+000	9.999040e-002
2.040500000000147e-007	1.435614e-003	9.916759e+000	9.999043e-002
2.041500000000147e-007	1.435468e-003	9.916964e+000	9.999043e-002
2.078642857143007e-007	1.430383e-003	9.924100e+000	9.999046e-002
2.115785714285867e-007	1.425669e-003	9.930727e+000	9.999050e-002
2.152928571428727e-007	1.421324e-003	9.936845e+000	9.999053e-002
2.190071428571587e-007	1.417348e-003	9.942454e+000	9.999055e-002
2.227214285714447e-007	1.413743e-003	9.947554e+000	9.999058e-002
2.264357142857307e-007	1.410507e-003	9.952144e+000	9.999060e-002
2.301500000000167e-007	1.407642e-003	9.956225e+000	9.999061e-002
2.338642857143027e-007	1.405000e-003	9.959988e+000	9.999063e-002
2.375785714285887e-007	1.402549e-003	9.963481e+000	9.999065e-002
2.412928571428747e-007	1.400288e-003	9.966707e+000	9.999067e-002
2.450071428571607e-007	1.398217e-003	9.969664e+000	9.999068e-002
2.487214285714466e-007	1.396337e-003	9.972352e+000	9.999069e-002
2.524357142857326e-007	1.394648e-003	9.974772e+000	9.999070e-002
2.561500000000186e-007	1.393148e-003	9.976924e+000	9.999071e-002
2.598642857143046e-007	1.391766e-003	9.978907e+000	9.999072e-002
2.635785714285906e-007	1.390483e-003	9.980749e+000	9.999073e-002
2.672928571428766e-007	1.389300e-003	9.982449e+000	9.999074e-002
2.710071428571626e-007	1.388215e-003	9.984008e+000	9.999074e-002
2.747214285714486e-007	1.387230e-003	9.985425e+000	9.999075e-002
2.784357142857346e-007	1.386343e-003	9.986701e+000	9.999076e-002
2.821500000000206e-007	1.385556e-003	9.987835e+000	9.999076e-002
2.856214285714494e-007	1.384875e-003	9.988817e+000	9.999077e-002
2.890928571428783e-007	1.384240e-003	9.989732e+000	9.999077e-002
2.925642857143071e-007	1.383651e-003	9.990582e+000	9.999078e-002
2.960357142857359e-007	1.383108e-003	9.991364e+000	9.999078e-002
2.995071428571648e-007	1.382611e-003	9.992080e+000	9.999078e-002
3.029785714285936e-007	1.382161e-003	9.992730e+000	9.999078e-002
3.064500000000224e-007	1.381757e-003	9.993313e+000	9.999079e-002
3.065500000000224e-007	1.381746e-003	9.993329e+000	9.999079e-002
3.102642857143084e-007	1.381349e-003	9.993903e+000	9.999079e-002
3.139785714285944e-007	1.380980e-003	9.994435e+000	9.999080e-002
3.176928571428804e-007	1.380640e-003	9.994927e+000	9.999080e-002
3.214071428571664e-007	1.380328e-003	9.995377e+000	9.999080e-002
3.251214285714524e-007	1.380044e-003	9.995787e+000	9.999080e-002
3.288357142857384e-007	1.379789e-003	9.996156e+000	9.999080e-002
3.325500000000244e-007	1.379562e-003	9.996484e+000	9.999080e-002
3.362642857143104e-007	1.379353e-003	9.996786e+000	9.999080e-002
3.399785714285964e-007	1.379159e-003	9.997067e+000	9.999081e-002
3.436928571428824e-007	1.378980e-003	9.997326e+000	9.999081e-002
3.474071428571684e-007	1.378815e-003	9.997563e+000	9.999081e-002
3.511214285714543e-007	1.378666e-003	9.997779e+000	9.999081e-002
3.548357142857403e-007	1.378532e-003	9.997973e+000	9.999081e-002
3.585500000000263e-007	1.378412e-003	9.998146e+000	9.999081e-002
3.622642857143123e-007	1.378302e-003	9.998306e+000	9.999081e-002
3.659785714285983e-007	1.378199e-003	9.998454e+000	9.999081e-002
3.696928571428843e-007	1.378105e-003	9.998590e+000	9.999081e-002
3.734071428571703e-007	1.378018e-003	9.998716e+000	9.999082e-002
3.771214285714563e-007	1.377940e-003	9.998829e+000	9.999082e-002
3.808357142857423e-007	1.377869e-003	9.998932e+000	9.999082e-002
3.845500000000283e-007	1.377806e-003	9.999022e+000	9.999081e-002
3.880214285714571e-007	1.377752e-003	9.999101e+000	9.999081e-002
3.914928571428859e-007	1.377701e-003	9.999175e+000	9.999081e-002
3.949642857143148e-007	1.377654e-003	9.999243e+000	9.999081e-002
3.984357142857436e-007	1.377610e-003	9.999306e+000	9.999081e-002
4.019071428571725e-007	1.377570e-003	9.999364e+000	9.999081e-002
4.053785714286013e-007	1.377534e-003	9.999416e+000	9.999081e-002
4.088500000000301e-007	1.377502e-003	9.999463e+000	9.999081e-002
4.089500000000301e-007	1.377501e-003	9.999464e+000	9.999081e-002
4.126785714286018e-007	1.377469e-003	9.999510e+000	9.999081e-002
4.164071428571735e-007	1.377439e-003	9.999553e+000	9.999081e-002
4.201357142857452e-007	1.377412e-003	9.999592e+000	9.999081e-002
4.238642857143169e-007	1.377387e-003	9.999629e+000	9.999081e-002
4.275928571428887e-007	1.377364e-003	9.999662e+000	9.999081e-002
4.313214285714603e-007	1.377344e-003	9.999692e+000	9.999081e-002
4.350500000000321e-007	1.377325e-003	9.999719e+000	9.999081e-002
4.387928571428895e-007	1.377309e-003	9.999743e+000	9.999081e-002
4.425357142857469e-007	1.377293e-003	9.999765e+000	9.999081e-002
4.462785714286043e-007	1.377278e-003	9.999786e+000	9.999081e-002
4.500214285714617e-007	1.377265e-003	9.999805e+000	9.999081e-002
4.537642857143192e-007	1.377253e-003	9.999823e+000	9.999081e-002
4.575071428571766e-007	1.377242e-003	9.999838e+000	9.999081e-002
4.612500000000340e-007	1.377233e-003	9.999852e+000	9.999081e-002
4.650214285714629e-007	1.377224e-003	9.999865e+000	9.999081e-002
4.687928571428918e-007	1.377216e-003	9.999877e+000	9.999081e-002
4.725642857143206e-007	1.377208e-003	9.999888e+000	9.999081e-002
4.763357142857494e-007	1.377201e-003	9.999898e+000	9.999082e-002
4.801071428571783e-007	1.377195e-003	9.999907e+000	9.999082e-002
4.838785714286072e-007	1.377189e-003	9.999915e+000	9.999082e-002
4.876500000000360e-007	1.377184e-003	9.999923e+000	9.999082e-002
4.910214285714648e-007	1.377180e-003	9.999929e+000	9.999082e-002
4.943928571428936e-007	1.377176e-003	9.999934e+000	9.999082e-002
4.977642857143224e-007	1.377172e-003	9.999939e+000	9.999082e-002
5.011357142857514e-007	1.377169e-003	9.999944e+000	9.999082e-002
5.045071428571802e-007	1.377166e-003	9.999949e+000	9.999082e-002
5.078785714286090e-007	1.377163e-003	9.999953e+000	9.999082e-002
5.112500000000378e-007	1.377160e-003	9.999957e+000	9.999082e-002
5.113500000000378e-007	1.377160e-003	9.999957e+000	9.999082e-002
